
T2954 000:302 SEGGER J-Link V4.91b (beta) Log File (0000ms, 0278ms total)
T2954 000:302 DLL Compiled: Sep 15 2014 09:17:56 (0000ms, 0278ms total)
T2954 000:302 Logging started @ 2016-05-09 22:02 (0000ms, 0278ms total)
T2954 000:302 JLINK_SetWarnOutHandler(...) (0000ms, 0278ms total)
T2954 000:302 JLINK_OpenEx(...)
Firmware: J-Link ARM V8 compiled Nov 28 2014 13:44:46
Hardware: V8.00
S/N: 17935099
Feature(s): RDI,FlashDL,FlashBP,JFlash  returns O.K. (0274ms, 0552ms total)
T2954 000:576 JLINK_SetErrorOutHandler(...) (0000ms, 0552ms total)
T2954 000:576 JLINK_ExecCommand("ProjectFile = "C:\Users\alex.wei\Desktop\RM2016步兵车开源代码2\RM2016步兵车开源代码\RM2016_INFANTRY_OPEN_SOURCEV.1.6.4\JLinkSettings.ini"", ...)  returns 0x00 (0007ms, 0559ms total)
T2954 000:603 JLINK_ExecCommand("Device = STM32F405RG", ...)Device "STM32F405RG" selected (1024 KB flash, 128 KB RAM).  returns 0x00 (0010ms, 0569ms total)
T2954 000:613 JLINK_ExecCommand("DisableConnectionTimeout", ...)  returns 0x01 (0000ms, 0569ms total)
T2954 000:613 JLINK_GetHardwareVersion()  returns 0x13880 (0000ms, 0569ms total)
T2954 000:613 JLINK_GetDLLVersion()  returns 49102 (0000ms, 0569ms total)
T2954 000:613 JLINK_GetFirmwareString(...) (0000ms, 0569ms total)
T2954 000:640 JLINK_GetDLLVersion()  returns 49102 (0000ms, 0569ms total)
T2954 000:640 JLINK_GetCompileDateTime() (0000ms, 0569ms total)
T2954 000:644 JLINK_GetFirmwareString(...) (0000ms, 0569ms total)
T2954 000:648 JLINK_GetHardwareVersion()  returns 0x13880 (0000ms, 0569ms total)
T2954 000:662 JLINK_TIF_Select(JLINKARM_TIF_SWD)  returns 0x00 (0004ms, 0573ms total)
T2954 000:666 JLINK_SetSpeed(2000) (0001ms, 0574ms total)
T2954 000:667 JLINK_GetId() >0x108 TIF>Found SWD-DP with ID 0x2BA01477 >0x0D TIF> >0x28 TIF> >0x0D TIF> >0x28 TIF> >0x0D TIF> >0x21 TIF> >0x0D TIF> >0x28 TIF> >0x0D TIF> >0x28 TIF> >0x0D TIF> >0x28 TIF> >0x0D TIF> >0x21 TIF> >0x0D TIF> >0x21 TIF> >0x0D TIF> >0x28 TIF> >0x0D TIF> >0x21 TIF> >0x0D TIF> >0x21 TIF> >0x0D TIF> >0x28 TIF> >0x0D TIF> >0x21 TIF> >0x0D TIF> >0x21 TIF> >0x108 TIF>Found SWD-DP with ID 0x2BA01477 >0x0D TIF> >0x21 TIF> >0x0D TIF> >0x28 TIF> >0x0D TIF> >0x28 TIF> >0x0D TIF> >0x21 TIF>
 >0x0D TIF> >0x28 TIF> >0x0D TIF> >0x21 TIF> >0x0D TIF> >0x21 TIF> >0x0D TIF> >0x21 TIF> >0x0D TIF> >0x21 TIF> >0x0D TIF> >0x28 TIF> >0x0D TIF> >0x28 TIF> >0x0D TIF> >0x21 TIF> >0x0D TIF> >0x28 TIF> >0x0D TIF> >0x28 TIF> >0x0D TIF> >0x28 TIF> >0x0D TIF> >0x21 TIF> >0x0D TIF> >0x21 TIF> >0x0D TIF> >0x28 TIF> >0x0D TIF> >0x21 TIF> >0x0D TIF> >0x21 TIF>Found Cortex-M4 r0p1, Little endian. -- CPU_WriteMem(4 bytes @ 0xE0002000) -- CPU_ReadMem(4 bytes @ 0xE000EDF0) -- CPU_ReadMem(4 bytes @ 0xE0002000)
FPUnit: 6 code (BP) slots and 2 literal slots -- CPU_ReadMem(4 bytes @ 0xE000EDFC) -- CPU_ReadMem(4 bytes @ 0xE0001000) -- CPU_WriteMem(4 bytes @ 0xE0001000) -- CPU_ReadMem(4 bytes @ 0xE000ED88) -- CPU_WriteMem(4 bytes @ 0xE000ED88) -- CPU_ReadMem(4 bytes @ 0xE000ED88) -- CPU_WriteMem(4 bytes @ 0xE000ED88) -- CPU_ReadMem(4 bytes @ 0xE00FF010)TPIU fitted. -- CPU_ReadMem(4 bytes @ 0xE00FF014)ETM fitted. -- CPU_ReadMem(4 bytes @ 0xE00FF018) >0x0D TIF> >0x21 TIF>  returns 0x2BA01477 (0120ms, 0694ms total)
T2954 000:787 JLINK_GetDeviceFamily()  returns 14 (0000ms, 0694ms total)
T2954 000:791 JLINK_ReadMem (0xE00FFFF0, 0x0010 Bytes, ...) -- CPU is running -- CPU_ReadMem(16 bytes @ 0xE00FFFF0) - Data: 0D 00 00 00 10 00 00 00 05 00 00 00 B1 00 00 00  returns 0x00 (0001ms, 0695ms total)
T2954 000:792 JLINK_ReadMem (0xE00FFFD0, 0x0020 Bytes, ...) -- CPU is running -- CPU_ReadMem(32 bytes @ 0xE00FFFD0) - Data: 00 00 00 00 00 00 00 00 00 00 00 00 00 00 00 00 ...  returns 0x00 (0001ms, 0696ms total)
T2954 000:793 JLINK_ReadMem (0xE00FF000, 0x0018 Bytes, ...) -- CPU is running -- CPU_ReadMem(24 bytes @ 0xE00FF000) - Data: 03 F0 F0 FF 03 20 F0 FF 03 30 F0 FF 03 10 F0 FF ...  returns 0x00 (0001ms, 0697ms total)
T2954 000:794 JLINK_ReadMemU32(0xE000ED00, 0x0001 Items, ...) -- CPU is running -- CPU_ReadMem(4 bytes @ 0xE000ED00) - Data: 41 C2 0F 41  returns 0x01 (0001ms, 0698ms total)
T2954 000:795 JLINK_ReadMemU32(0xE000EF40, 0x0001 Items, ...) -- CPU is running -- CPU_ReadMem(4 bytes @ 0xE000EF40) - Data: 21 00 11 10  returns 0x01 (0001ms, 0699ms total)
T2954 000:796 JLINK_ReadMemU32(0xE000EF44, 0x0001 Items, ...) -- CPU is running -- CPU_ReadMem(4 bytes @ 0xE000EF44) - Data: 11 00 00 11  returns 0x01 (0001ms, 0700ms total)
T2954 000:797 JLINK_SetResetType(JLINKARM_RESET_TYPE_NORMAL)  returns JLINKARM_RESET_TYPE_NORMAL (0000ms, 0700ms total)
T2954 000:797 JLINK_Reset() -- CPU is running -- CPU_WriteMem(4 bytes @ 0xE000EDF0) -- CPU is running -- CPU_WriteMem(4 bytes @ 0xE000EDFC) >0x35 TIF> -- CPU is running -- CPU_WriteMem(4 bytes @ 0xE000ED0C) -- CPU is running -- CPU_ReadMem(4 bytes @ 0xE000EDF0) -- CPU is running -- CPU_ReadMem(4 bytes @ 0xE000EDF0) -- CPU is running -- CPU_WriteMem(4 bytes @ 0xE000EDF0) -- CPU is running -- CPU_WriteMem(4 bytes @ 0xE000EDFC) -- CPU is running -- CPU_ReadMem(4 bytes @ 0xE000EDF0)
 -- CPU_WriteMem(4 bytes @ 0xE0002000) -- CPU_ReadMem(4 bytes @ 0xE000EDFC) -- CPU_ReadMem(4 bytes @ 0xE0001000) (0024ms, 0724ms total)
T2954 000:821 JLINK_Halt()  returns 0x00 (0000ms, 0724ms total)
T2954 000:821 JLINK_IsHalted()  returns TRUE (0000ms, 0724ms total)
T2954 000:821 JLINK_ReadMemU32(0xE000EDF0, 0x0001 Items, ...) -- CPU_ReadMem(4 bytes @ 0xE000EDF0) - Data: 03 00 03 00  returns 0x01 (0001ms, 0725ms total)
T2954 000:822 JLINK_WriteU32(0xE000EDF0, 0xA05F0003) -- CPU_WriteMem(4 bytes @ 0xE000EDF0)  returns 0x00 (0001ms, 0726ms total)
T2954 000:823 JLINK_WriteU32(0xE000EDFC, 0x01000000) -- CPU_WriteMem(4 bytes @ 0xE000EDFC)  returns 0x00 (0001ms, 0727ms total)
T2954 000:836 JLINK_GetHWStatus(...)  returns 0x00 (0002ms, 0729ms total)
T2954 000:848 JLINK_GetNumBPUnits(Type = 0xFFFFFF00)  returns 0x06 (0000ms, 0729ms total)
T2954 000:848 JLINK_GetNumBPUnits(Type = 0xF0)  returns 0x2000 (0000ms, 0729ms total)
T2954 000:848 JLINK_GetNumWPUnits()  returns 0x04 (0000ms, 0729ms total)
T2954 000:858 JLINK_GetSpeed()  returns 0x7D0 (0000ms, 0729ms total)
T2954 000:864 JLINK_ReadMemU32(0xE000E004, 0x0001 Items, ...) -- CPU_ReadMem(4 bytes @ 0xE000E004) - Data: 02 00 00 00  returns 0x01 (0002ms, 0731ms total)
T2954 000:866 JLINK_ReadMemU32(0xE000E004, 0x0001 Items, ...) -- CPU_ReadMem(4 bytes @ 0xE000E004) - Data: 02 00 00 00  returns 0x01 (0001ms, 0732ms total)
T2954 000:867 JLINK_WriteMem(0xE0001000, 0x001C Bytes, ...) - Data: 01 00 00 00 00 00 00 00 00 00 00 00 00 00 00 00 ... -- CPU_WriteMem(28 bytes @ 0xE0001000)  returns 0x1C (0001ms, 0733ms total)
T2954 000:868 JLINK_ReadMem (0xE0001000, 0x001C Bytes, ...) -- CPU_ReadMem(28 bytes @ 0xE0001000) - Data: 01 00 00 40 00 00 00 00 00 00 00 00 00 00 00 00 ...  returns 0x00 (0001ms, 0734ms total)
T2954 000:869 JLINK_Halt()  returns 0x00 (0000ms, 0734ms total)
T2954 000:869 JLINK_IsHalted()  returns TRUE (0000ms, 0734ms total)
T2954 000:871 JLINK_WriteMem(0x20000000, 0x0180 Bytes, ...) - Data: 00 BE 0A E0 0D 78 2D 06 68 40 08 24 40 00 00 D3 ... -- CPU_WriteMem(384 bytes @ 0x20000000)  returns 0x180 (0005ms, 0739ms total)
T2954 000:876 JLINK_WriteReg(R0, 0x08000000)  returns 0x00 (0000ms, 0739ms total)
T2954 000:876 JLINK_WriteReg(R1, 0x017D7840)  returns 0x00 (0000ms, 0739ms total)
T2954 000:876 JLINK_WriteReg(R2, 0x00000001)  returns 0x00 (0000ms, 0739ms total)
T2954 000:876 JLINK_WriteReg(R3, 0x00000000)  returns 0x00 (0000ms, 0739ms total)
T2954 000:876 JLINK_WriteReg(R4, 0x00000000)  returns 0x00 (0000ms, 0739ms total)
T2954 000:876 JLINK_WriteReg(R5, 0x00000000)  returns 0x00 (0000ms, 0739ms total)
T2954 000:876 JLINK_WriteReg(R6, 0x00000000)  returns 0x00 (0000ms, 0739ms total)
T2954 000:876 JLINK_WriteReg(R7, 0x00000000)  returns 0x00 (0000ms, 0739ms total)
T2954 000:876 JLINK_WriteReg(R8, 0x00000000)  returns 0x00 (0000ms, 0739ms total)
T2954 000:876 JLINK_WriteReg(R9, 0x2000017C)  returns 0x00 (0000ms, 0739ms total)
T2954 000:876 JLINK_WriteReg(R10, 0x00000000)  returns 0x00 (0000ms, 0739ms total)
T2954 000:876 JLINK_WriteReg(R11, 0x00000000)  returns 0x00 (0000ms, 0739ms total)
T2954 000:876 JLINK_WriteReg(R12, 0x00000000)  returns 0x00 (0000ms, 0739ms total)
T2954 000:876 JLINK_WriteReg(R13 (SP), 0x20000800)  returns 0x00 (0000ms, 0739ms total)
T2954 000:876 JLINK_WriteReg(R14, 0x20000001)  returns 0x00 (0000ms, 0739ms total)
T2954 000:876 JLINK_WriteReg(R15 (PC), 0x20000054)  returns 0x00 (0000ms, 0739ms total)
T2954 000:876 JLINK_WriteReg(XPSR, 0x01000000)  returns 0x00 (0000ms, 0739ms total)
T2954 000:876 JLINK_WriteReg(MSP, 0x20000800)  returns 0x00 (0000ms, 0739ms total)
T2954 000:876 JLINK_WriteReg(PSP, 0x20000800)  returns 0x00 (0000ms, 0739ms total)
T2954 000:876 JLINK_WriteReg(CFBP, 0x00000000)  returns 0x00 (0000ms, 0739ms total)
T2954 000:876 JLINK_SetBPEx(Addr = 0x20000000, Type = 0xFFFFFFF2) -- CPU_ReadMem(2 bytes @ 0x20000000)  returns 0x00000001 (0002ms, 0741ms total)
T2954 000:878 JLINK_Go() -- CPU_WriteMem(2 bytes @ 0x20000000) -- CPU_WriteMem(4 bytes @ 0xE0002008) -- CPU_WriteMem(4 bytes @ 0xE000200C) -- CPU_WriteMem(4 bytes @ 0xE0002010) -- CPU_WriteMem(4 bytes @ 0xE0002014) -- CPU_WriteMem(4 bytes @ 0xE0002018) -- CPU_WriteMem(4 bytes @ 0xE000201C) -- CPU_WriteMem(4 bytes @ 0xE0001004) (0011ms, 0752ms total)
T2954 000:889 JLINK_IsHalted() -- CPU_ReadMem(2 bytes @ 0x20000000)  returns TRUE (0005ms, 0757ms total)
T2954 000:894 JLINK_ReadReg(R15 (PC))  returns 0x20000000 (0000ms, 0752ms total)
T2954 000:894 JLINK_ClrBPEx(BPHandle = 0x00000001)  returns 0x00 (0000ms, 0752ms total)
T2954 000:894 JLINK_ReadReg(R0)  returns 0x00000000 (0000ms, 0752ms total)
T2954 000:894 JLINK_WriteReg(R0, 0x08000000)  returns 0x00 (0000ms, 0752ms total)
T2954 000:894 JLINK_WriteReg(R1, 0x00004000)  returns 0x00 (0000ms, 0752ms total)
T2954 000:894 JLINK_WriteReg(R2, 0x000000FF)  returns 0x00 (0000ms, 0752ms total)
T2954 000:894 JLINK_WriteReg(R3, 0x00000000)  returns 0x00 (0000ms, 0752ms total)
T2954 000:894 JLINK_WriteReg(R4, 0x00000000)  returns 0x00 (0000ms, 0752ms total)
T2954 000:894 JLINK_WriteReg(R5, 0x00000000)  returns 0x00 (0000ms, 0752ms total)
T2954 000:894 JLINK_WriteReg(R6, 0x00000000)  returns 0x00 (0000ms, 0752ms total)
T2954 000:894 JLINK_WriteReg(R7, 0x00000000)  returns 0x00 (0000ms, 0752ms total)
T2954 000:894 JLINK_WriteReg(R8, 0x00000000)  returns 0x00 (0000ms, 0752ms total)
T2954 000:894 JLINK_WriteReg(R9, 0x2000017C)  returns 0x00 (0000ms, 0752ms total)
T2954 000:894 JLINK_WriteReg(R10, 0x00000000)  returns 0x00 (0000ms, 0752ms total)
T2954 000:894 JLINK_WriteReg(R11, 0x00000000)  returns 0x00 (0000ms, 0752ms total)
T2954 000:894 JLINK_WriteReg(R12, 0x00000000)  returns 0x00 (0000ms, 0752ms total)
T2954 000:894 JLINK_WriteReg(R13 (SP), 0x20000800)  returns 0x00 (0000ms, 0752ms total)
T2954 000:894 JLINK_WriteReg(R14, 0x20000001)  returns 0x00 (0000ms, 0752ms total)
T2954 000:894 JLINK_WriteReg(R15 (PC), 0x20000020)  returns 0x00 (0000ms, 0752ms total)
T2954 000:894 JLINK_WriteReg(XPSR, 0x01000000)  returns 0x00 (0000ms, 0752ms total)
T2954 000:894 JLINK_WriteReg(MSP, 0x20000800)  returns 0x00 (0000ms, 0752ms total)
T2954 000:894 JLINK_WriteReg(PSP, 0x20000800)  returns 0x00 (0000ms, 0752ms total)
T2954 000:894 JLINK_WriteReg(CFBP, 0x00000000)  returns 0x00 (0000ms, 0752ms total)
T2954 000:894 JLINK_SetBPEx(Addr = 0x20000000, Type = 0xFFFFFFF2)  returns 0x00000002 (0000ms, 0752ms total)
T2954 000:894 JLINK_Go() (0003ms, 0755ms total)
T2954 000:897 JLINK_IsHalted() -- CPU_ReadMem(2 bytes @ 0x20000000)  returns TRUE (0005ms, 0760ms total)
T2954 000:902 JLINK_ReadReg(R15 (PC))  returns 0x20000000 (0000ms, 0755ms total)
T2954 000:902 JLINK_ClrBPEx(BPHandle = 0x00000002)  returns 0x00 (0000ms, 0755ms total)
T2954 000:902 JLINK_ReadReg(R0)  returns 0x00000001 (0000ms, 0755ms total)
T2954 000:902 JLINK_WriteReg(R0, 0x08000000)  returns 0x00 (0000ms, 0755ms total)
T2954 000:902 JLINK_WriteReg(R1, 0x00004000)  returns 0x00 (0000ms, 0755ms total)
T2954 000:902 JLINK_WriteReg(R2, 0x000000FF)  returns 0x00 (0000ms, 0755ms total)
T2954 000:902 JLINK_WriteReg(R3, 0x00000000)  returns 0x00 (0000ms, 0755ms total)
T2954 000:902 JLINK_WriteReg(R4, 0x00000000)  returns 0x00 (0000ms, 0755ms total)
T2954 000:902 JLINK_WriteReg(R5, 0x00000000)  returns 0x00 (0000ms, 0755ms total)
T2954 000:902 JLINK_WriteReg(R6, 0x00000000)  returns 0x00 (0000ms, 0755ms total)
T2954 000:902 JLINK_WriteReg(R7, 0x00000000)  returns 0x00 (0000ms, 0755ms total)
T2954 000:902 JLINK_WriteReg(R8, 0x00000000)  returns 0x00 (0000ms, 0755ms total)
T2954 000:902 JLINK_WriteReg(R9, 0x2000017C)  returns 0x00 (0000ms, 0755ms total)
T2954 000:902 JLINK_WriteReg(R10, 0x00000000)  returns 0x00 (0000ms, 0755ms total)
T2954 000:902 JLINK_WriteReg(R11, 0x00000000)  returns 0x00 (0000ms, 0755ms total)
T2954 000:902 JLINK_WriteReg(R12, 0x00000000)  returns 0x00 (0000ms, 0755ms total)
T2954 000:902 JLINK_WriteReg(R13 (SP), 0x20000800)  returns 0x00 (0000ms, 0755ms total)
T2954 000:902 JLINK_WriteReg(R14, 0x20000001)  returns 0x00 (0000ms, 0755ms total)
T2954 000:902 JLINK_WriteReg(R15 (PC), 0x200000BC)  returns 0x00 (0000ms, 0755ms total)
T2954 000:902 JLINK_WriteReg(XPSR, 0x01000000)  returns 0x00 (0000ms, 0755ms total)
T2954 000:902 JLINK_WriteReg(MSP, 0x20000800)  returns 0x00 (0000ms, 0755ms total)
T2954 000:902 JLINK_WriteReg(PSP, 0x20000800)  returns 0x00 (0000ms, 0755ms total)
T2954 000:902 JLINK_WriteReg(CFBP, 0x00000000)  returns 0x00 (0000ms, 0755ms total)
T2954 000:902 JLINK_SetBPEx(Addr = 0x20000000, Type = 0xFFFFFFF2)  returns 0x00000003 (0000ms, 0755ms total)
T2954 000:902 JLINK_Go() (0003ms, 0758ms total)
T2954 000:905 JLINK_IsHalted()  returns FALSE (0001ms, 0759ms total)
T2954 000:987 JLINK_IsHalted()  returns FALSE (0001ms, 0759ms total)
T2954 001:063 JLINK_IsHalted()  returns FALSE (0002ms, 0760ms total)
T2954 001:067 JLINK_IsHalted()  returns FALSE (0001ms, 0759ms total)
T2954 001:137 JLINK_IsHalted()  returns FALSE (0001ms, 0759ms total)
T2954 001:155 JLINK_IsHalted()  returns FALSE (0001ms, 0759ms total)
T2954 001:157 JLINK_IsHalted()  returns FALSE (0001ms, 0759ms total)
T2954 001:159 JLINK_IsHalted()  returns FALSE (0001ms, 0759ms total)
T2954 001:161 JLINK_IsHalted()  returns FALSE (0001ms, 0759ms total)
T2954 001:163 JLINK_IsHalted()  returns FALSE (0001ms, 0759ms total)
T2954 001:165 JLINK_IsHalted()  returns FALSE (0001ms, 0759ms total)
T2954 001:167 JLINK_IsHalted()  returns FALSE (0001ms, 0759ms total)
T2954 001:169 JLINK_IsHalted()  returns FALSE (0001ms, 0759ms total)
T2954 001:171 JLINK_IsHalted()  returns FALSE (0001ms, 0759ms total)
T2954 001:173 JLINK_IsHalted()  returns FALSE (0001ms, 0759ms total)
T2954 001:175 JLINK_IsHalted()  returns FALSE (0001ms, 0759ms total)
T2954 001:177 JLINK_IsHalted()  returns FALSE (0001ms, 0759ms total)
T2954 001:248 JLINK_IsHalted()  returns FALSE (0001ms, 0759ms total)
T2954 001:267 JLINK_IsHalted()  returns FALSE (0001ms, 0759ms total)
T2954 001:269 JLINK_IsHalted()  returns FALSE (0001ms, 0759ms total)
T2954 001:271 JLINK_IsHalted()  returns FALSE (0001ms, 0759ms total)
T2954 001:273 JLINK_IsHalted()  returns FALSE (0001ms, 0759ms total)
T2954 001:275 JLINK_IsHalted() -- CPU_ReadMem(2 bytes @ 0x20000000)  returns TRUE (0005ms, 0763ms total)
T2954 001:280 JLINK_ReadReg(R15 (PC))  returns 0x20000000 (0000ms, 0758ms total)
T2954 001:280 JLINK_ClrBPEx(BPHandle = 0x00000003)  returns 0x00 (0000ms, 0758ms total)
T2954 001:280 JLINK_ReadReg(R0)  returns 0x00000000 (0000ms, 0758ms total)
T2954 001:280 JLINK_WriteReg(R0, 0x08004000)  returns 0x00 (0000ms, 0758ms total)
T2954 001:280 JLINK_WriteReg(R1, 0x00004000)  returns 0x00 (0000ms, 0758ms total)
T2954 001:280 JLINK_WriteReg(R2, 0x000000FF)  returns 0x00 (0000ms, 0758ms total)
T2954 001:280 JLINK_WriteReg(R3, 0x00000000)  returns 0x00 (0000ms, 0758ms total)
T2954 001:280 JLINK_WriteReg(R4, 0x00000000)  returns 0x00 (0000ms, 0758ms total)
T2954 001:280 JLINK_WriteReg(R5, 0x00000000)  returns 0x00 (0000ms, 0758ms total)
T2954 001:280 JLINK_WriteReg(R6, 0x00000000)  returns 0x00 (0000ms, 0758ms total)
T2954 001:280 JLINK_WriteReg(R7, 0x00000000)  returns 0x00 (0000ms, 0758ms total)
T2954 001:280 JLINK_WriteReg(R8, 0x00000000)  returns 0x00 (0000ms, 0758ms total)
T2954 001:280 JLINK_WriteReg(R9, 0x2000017C)  returns 0x00 (0000ms, 0758ms total)
T2954 001:280 JLINK_WriteReg(R10, 0x00000000)  returns 0x00 (0000ms, 0758ms total)
T2954 001:280 JLINK_WriteReg(R11, 0x00000000)  returns 0x00 (0000ms, 0758ms total)
T2954 001:280 JLINK_WriteReg(R12, 0x00000000)  returns 0x00 (0000ms, 0758ms total)
T2954 001:280 JLINK_WriteReg(R13 (SP), 0x20000800)  returns 0x00 (0000ms, 0758ms total)
T2954 001:280 JLINK_WriteReg(R14, 0x20000001)  returns 0x00 (0000ms, 0758ms total)
T2954 001:280 JLINK_WriteReg(R15 (PC), 0x20000020)  returns 0x00 (0000ms, 0758ms total)
T2954 001:280 JLINK_WriteReg(XPSR, 0x01000000)  returns 0x00 (0000ms, 0758ms total)
T2954 001:280 JLINK_WriteReg(MSP, 0x20000800)  returns 0x00 (0000ms, 0758ms total)
T2954 001:280 JLINK_WriteReg(PSP, 0x20000800)  returns 0x00 (0000ms, 0758ms total)
T2954 001:280 JLINK_WriteReg(CFBP, 0x00000000)  returns 0x00 (0000ms, 0758ms total)
T2954 001:280 JLINK_SetBPEx(Addr = 0x20000000, Type = 0xFFFFFFF2)  returns 0x00000004 (0000ms, 0758ms total)
T2954 001:280 JLINK_Go() (0003ms, 0761ms total)
T2954 001:283 JLINK_IsHalted() -- CPU_ReadMem(2 bytes @ 0x20000000)  returns TRUE (0005ms, 0766ms total)
T2954 001:288 JLINK_ReadReg(R15 (PC))  returns 0x20000000 (0000ms, 0761ms total)
T2954 001:288 JLINK_ClrBPEx(BPHandle = 0x00000004)  returns 0x00 (0000ms, 0761ms total)
T2954 001:288 JLINK_ReadReg(R0)  returns 0x00000001 (0000ms, 0761ms total)
T2954 001:288 JLINK_WriteReg(R0, 0x08004000)  returns 0x00 (0000ms, 0761ms total)
T2954 001:288 JLINK_WriteReg(R1, 0x00004000)  returns 0x00 (0000ms, 0761ms total)
T2954 001:288 JLINK_WriteReg(R2, 0x000000FF)  returns 0x00 (0000ms, 0761ms total)
T2954 001:288 JLINK_WriteReg(R3, 0x00000000)  returns 0x00 (0000ms, 0761ms total)
T2954 001:288 JLINK_WriteReg(R4, 0x00000000)  returns 0x00 (0000ms, 0761ms total)
T2954 001:288 JLINK_WriteReg(R5, 0x00000000)  returns 0x00 (0000ms, 0761ms total)
T2954 001:288 JLINK_WriteReg(R6, 0x00000000)  returns 0x00 (0000ms, 0761ms total)
T2954 001:288 JLINK_WriteReg(R7, 0x00000000)  returns 0x00 (0000ms, 0761ms total)
T2954 001:288 JLINK_WriteReg(R8, 0x00000000)  returns 0x00 (0000ms, 0761ms total)
T2954 001:288 JLINK_WriteReg(R9, 0x2000017C)  returns 0x00 (0000ms, 0761ms total)
T2954 001:288 JLINK_WriteReg(R10, 0x00000000)  returns 0x00 (0000ms, 0761ms total)
T2954 001:288 JLINK_WriteReg(R11, 0x00000000)  returns 0x00 (0000ms, 0761ms total)
T2954 001:288 JLINK_WriteReg(R12, 0x00000000)  returns 0x00 (0000ms, 0761ms total)
T2954 001:288 JLINK_WriteReg(R13 (SP), 0x20000800)  returns 0x00 (0000ms, 0761ms total)
T2954 001:288 JLINK_WriteReg(R14, 0x20000001)  returns 0x00 (0000ms, 0761ms total)
T2954 001:288 JLINK_WriteReg(R15 (PC), 0x200000BC)  returns 0x00 (0000ms, 0761ms total)
T2954 001:288 JLINK_WriteReg(XPSR, 0x01000000)  returns 0x00 (0000ms, 0761ms total)
T2954 001:288 JLINK_WriteReg(MSP, 0x20000800)  returns 0x00 (0000ms, 0761ms total)
T2954 001:288 JLINK_WriteReg(PSP, 0x20000800)  returns 0x00 (0000ms, 0761ms total)
T2954 001:288 JLINK_WriteReg(CFBP, 0x00000000)  returns 0x00 (0000ms, 0761ms total)
T2954 001:288 JLINK_SetBPEx(Addr = 0x20000000, Type = 0xFFFFFFF2)  returns 0x00000005 (0000ms, 0761ms total)
T2954 001:288 JLINK_Go() (0003ms, 0764ms total)
T2954 001:291 JLINK_IsHalted()  returns FALSE (0001ms, 0765ms total)
T2954 001:363 JLINK_IsHalted()  returns FALSE (0001ms, 0765ms total)
T2954 001:384 JLINK_IsHalted()  returns FALSE (0001ms, 0765ms total)
T2954 001:386 JLINK_IsHalted()  returns FALSE (0001ms, 0765ms total)
T2954 001:388 JLINK_IsHalted()  returns FALSE (0001ms, 0765ms total)
T2954 001:390 JLINK_IsHalted()  returns FALSE (0001ms, 0765ms total)
T2954 001:392 JLINK_IsHalted()  returns FALSE (0001ms, 0765ms total)
T2954 001:394 JLINK_IsHalted()  returns FALSE (0001ms, 0765ms total)
T2954 001:396 JLINK_IsHalted()  returns FALSE (0001ms, 0765ms total)
T2954 001:398 JLINK_IsHalted()  returns FALSE (0001ms, 0765ms total)
T2954 001:469 JLINK_IsHalted()  returns FALSE (0001ms, 0765ms total)
T2954 001:492 JLINK_IsHalted()  returns FALSE (0001ms, 0765ms total)
T2954 001:494 JLINK_IsHalted()  returns FALSE (0001ms, 0765ms total)
T2954 001:496 JLINK_IsHalted()  returns FALSE (0001ms, 0765ms total)
T2954 001:498 JLINK_IsHalted()  returns FALSE (0001ms, 0765ms total)
T2954 001:500 JLINK_IsHalted()  returns FALSE (0001ms, 0765ms total)
T2954 001:502 JLINK_IsHalted()  returns FALSE (0001ms, 0765ms total)
T2954 001:504 JLINK_IsHalted()  returns FALSE (0001ms, 0765ms total)
T2954 001:574 JLINK_IsHalted()  returns FALSE (0001ms, 0765ms total)
T2954 001:592 JLINK_IsHalted()  returns FALSE (0001ms, 0765ms total)
T2954 001:594 JLINK_IsHalted()  returns FALSE (0001ms, 0765ms total)
T2954 001:596 JLINK_IsHalted()  returns FALSE (0001ms, 0765ms total)
T2954 001:598 JLINK_IsHalted()  returns FALSE (0001ms, 0765ms total)
T2954 001:600 JLINK_IsHalted()  returns FALSE (0001ms, 0765ms total)
T2954 001:602 JLINK_IsHalted()  returns FALSE (0001ms, 0765ms total)
T2954 001:604 JLINK_IsHalted()  returns FALSE (0001ms, 0765ms total)
T2954 001:606 JLINK_IsHalted()  returns FALSE (0001ms, 0765ms total)
T2954 001:608 JLINK_IsHalted()  returns FALSE (0001ms, 0765ms total)
T2954 001:610 JLINK_IsHalted()  returns FALSE (0001ms, 0765ms total)
T2954 001:612 JLINK_IsHalted()  returns FALSE (0001ms, 0765ms total)
T2954 001:614 JLINK_IsHalted()  returns FALSE (0001ms, 0765ms total)
T2954 001:685 JLINK_IsHalted() -- CPU_ReadMem(2 bytes @ 0x20000000)  returns TRUE (0005ms, 0769ms total)
T2954 001:690 JLINK_ReadReg(R15 (PC))  returns 0x20000000 (0000ms, 0764ms total)
T2954 001:690 JLINK_ClrBPEx(BPHandle = 0x00000005)  returns 0x00 (0000ms, 0764ms total)
T2954 001:690 JLINK_ReadReg(R0)  returns 0x00000000 (0000ms, 0764ms total)
T2954 001:690 JLINK_WriteReg(R0, 0x08008000)  returns 0x00 (0000ms, 0764ms total)
T2954 001:690 JLINK_WriteReg(R1, 0x00004000)  returns 0x00 (0000ms, 0764ms total)
T2954 001:690 JLINK_WriteReg(R2, 0x000000FF)  returns 0x00 (0000ms, 0764ms total)
T2954 001:690 JLINK_WriteReg(R3, 0x00000000)  returns 0x00 (0000ms, 0764ms total)
T2954 001:690 JLINK_WriteReg(R4, 0x00000000)  returns 0x00 (0000ms, 0764ms total)
T2954 001:690 JLINK_WriteReg(R5, 0x00000000)  returns 0x00 (0000ms, 0764ms total)
T2954 001:690 JLINK_WriteReg(R6, 0x00000000)  returns 0x00 (0000ms, 0764ms total)
T2954 001:690 JLINK_WriteReg(R7, 0x00000000)  returns 0x00 (0000ms, 0764ms total)
T2954 001:690 JLINK_WriteReg(R8, 0x00000000)  returns 0x00 (0000ms, 0764ms total)
T2954 001:690 JLINK_WriteReg(R9, 0x2000017C)  returns 0x00 (0000ms, 0764ms total)
T2954 001:690 JLINK_WriteReg(R10, 0x00000000)  returns 0x00 (0000ms, 0764ms total)
T2954 001:690 JLINK_WriteReg(R11, 0x00000000)  returns 0x00 (0000ms, 0764ms total)
T2954 001:690 JLINK_WriteReg(R12, 0x00000000)  returns 0x00 (0000ms, 0764ms total)
T2954 001:690 JLINK_WriteReg(R13 (SP), 0x20000800)  returns 0x00 (0000ms, 0764ms total)
T2954 001:690 JLINK_WriteReg(R14, 0x20000001)  returns 0x00 (0000ms, 0764ms total)
T2954 001:690 JLINK_WriteReg(R15 (PC), 0x20000020)  returns 0x00 (0000ms, 0764ms total)
T2954 001:690 JLINK_WriteReg(XPSR, 0x01000000)  returns 0x00 (0000ms, 0764ms total)
T2954 001:690 JLINK_WriteReg(MSP, 0x20000800)  returns 0x00 (0000ms, 0764ms total)
T2954 001:690 JLINK_WriteReg(PSP, 0x20000800)  returns 0x00 (0000ms, 0764ms total)
T2954 001:690 JLINK_WriteReg(CFBP, 0x00000000)  returns 0x00 (0000ms, 0764ms total)
T2954 001:690 JLINK_SetBPEx(Addr = 0x20000000, Type = 0xFFFFFFF2)  returns 0x00000006 (0000ms, 0764ms total)
T2954 001:690 JLINK_Go() (0003ms, 0767ms total)
T2954 001:693 JLINK_IsHalted() -- CPU_ReadMem(2 bytes @ 0x20000000)  returns TRUE (0005ms, 0772ms total)
T2954 001:698 JLINK_ReadReg(R15 (PC))  returns 0x20000000 (0000ms, 0767ms total)
T2954 001:698 JLINK_ClrBPEx(BPHandle = 0x00000006)  returns 0x00 (0000ms, 0767ms total)
T2954 001:698 JLINK_ReadReg(R0)  returns 0x00000001 (0000ms, 0767ms total)
T2954 001:698 JLINK_WriteReg(R0, 0x08008000)  returns 0x00 (0000ms, 0767ms total)
T2954 001:698 JLINK_WriteReg(R1, 0x00004000)  returns 0x00 (0000ms, 0767ms total)
T2954 001:698 JLINK_WriteReg(R2, 0x000000FF)  returns 0x00 (0000ms, 0767ms total)
T2954 001:698 JLINK_WriteReg(R3, 0x00000000)  returns 0x00 (0000ms, 0767ms total)
T2954 001:698 JLINK_WriteReg(R4, 0x00000000)  returns 0x00 (0000ms, 0767ms total)
T2954 001:698 JLINK_WriteReg(R5, 0x00000000)  returns 0x00 (0000ms, 0767ms total)
T2954 001:698 JLINK_WriteReg(R6, 0x00000000)  returns 0x00 (0000ms, 0767ms total)
T2954 001:698 JLINK_WriteReg(R7, 0x00000000)  returns 0x00 (0000ms, 0767ms total)
T2954 001:698 JLINK_WriteReg(R8, 0x00000000)  returns 0x00 (0000ms, 0767ms total)
T2954 001:698 JLINK_WriteReg(R9, 0x2000017C)  returns 0x00 (0000ms, 0767ms total)
T2954 001:698 JLINK_WriteReg(R10, 0x00000000)  returns 0x00 (0000ms, 0767ms total)
T2954 001:698 JLINK_WriteReg(R11, 0x00000000)  returns 0x00 (0000ms, 0767ms total)
T2954 001:698 JLINK_WriteReg(R12, 0x00000000)  returns 0x00 (0000ms, 0767ms total)
T2954 001:698 JLINK_WriteReg(R13 (SP), 0x20000800)  returns 0x00 (0000ms, 0767ms total)
T2954 001:698 JLINK_WriteReg(R14, 0x20000001)  returns 0x00 (0000ms, 0767ms total)
T2954 001:698 JLINK_WriteReg(R15 (PC), 0x200000BC)  returns 0x00 (0000ms, 0767ms total)
T2954 001:698 JLINK_WriteReg(XPSR, 0x01000000)  returns 0x00 (0000ms, 0767ms total)
T2954 001:698 JLINK_WriteReg(MSP, 0x20000800)  returns 0x00 (0000ms, 0767ms total)
T2954 001:698 JLINK_WriteReg(PSP, 0x20000800)  returns 0x00 (0000ms, 0767ms total)
T2954 001:698 JLINK_WriteReg(CFBP, 0x00000000)  returns 0x00 (0000ms, 0767ms total)
T2954 001:698 JLINK_SetBPEx(Addr = 0x20000000, Type = 0xFFFFFFF2)  returns 0x00000007 (0000ms, 0767ms total)
T2954 001:698 JLINK_Go() (0003ms, 0770ms total)
T2954 001:701 JLINK_IsHalted()  returns FALSE (0001ms, 0771ms total)
T2954 001:719 JLINK_IsHalted()  returns FALSE (0001ms, 0771ms total)
T2954 001:721 JLINK_IsHalted()  returns FALSE (0001ms, 0771ms total)
T2954 001:723 JLINK_IsHalted()  returns FALSE (0001ms, 0771ms total)
T2954 001:794 JLINK_IsHalted()  returns FALSE (0001ms, 0771ms total)
T2954 001:816 JLINK_IsHalted()  returns FALSE (0001ms, 0771ms total)
T2954 001:818 JLINK_IsHalted()  returns FALSE (0001ms, 0771ms total)
T2954 001:820 JLINK_IsHalted()  returns FALSE (0001ms, 0771ms total)
T2954 001:822 JLINK_IsHalted()  returns FALSE (0001ms, 0771ms total)
T2954 001:824 JLINK_IsHalted()  returns FALSE (0001ms, 0771ms total)
T2954 001:826 JLINK_IsHalted()  returns FALSE (0001ms, 0771ms total)
T2954 001:828 JLINK_IsHalted()  returns FALSE (0001ms, 0771ms total)
T2954 001:830 JLINK_IsHalted()  returns FALSE (0001ms, 0771ms total)
T2954 001:832 JLINK_IsHalted()  returns FALSE (0001ms, 0771ms total)
T2954 001:902 JLINK_IsHalted()  returns FALSE (0001ms, 0771ms total)
T2954 001:923 JLINK_IsHalted()  returns FALSE (0001ms, 0771ms total)
T2954 001:925 JLINK_IsHalted()  returns FALSE (0001ms, 0771ms total)
T2954 001:927 JLINK_IsHalted()  returns FALSE (0001ms, 0771ms total)
T2954 001:929 JLINK_IsHalted()  returns FALSE (0001ms, 0771ms total)
T2954 001:931 JLINK_IsHalted()  returns FALSE (0001ms, 0771ms total)
T2954 001:933 JLINK_IsHalted()  returns FALSE (0001ms, 0771ms total)
T2954 001:935 JLINK_IsHalted()  returns FALSE (0001ms, 0771ms total)
T2954 001:937 JLINK_IsHalted()  returns FALSE (0001ms, 0771ms total)
T2954 001:939 JLINK_IsHalted()  returns FALSE (0001ms, 0771ms total)
T2954 001:941 JLINK_IsHalted()  returns FALSE (0001ms, 0771ms total)
T2954 002:012 JLINK_IsHalted()  returns FALSE (0001ms, 0771ms total)
T2954 002:033 JLINK_IsHalted()  returns FALSE (0001ms, 0771ms total)
T2954 002:035 JLINK_IsHalted()  returns FALSE (0001ms, 0771ms total)
T2954 002:037 JLINK_IsHalted()  returns FALSE (0001ms, 0771ms total)
T2954 002:039 JLINK_IsHalted()  returns FALSE (0001ms, 0771ms total)
T2954 002:041 JLINK_IsHalted()  returns FALSE (0001ms, 0771ms total)
T2954 002:043 JLINK_IsHalted()  returns FALSE (0001ms, 0771ms total)
T2954 002:045 JLINK_IsHalted()  returns FALSE (0001ms, 0771ms total)
T2954 002:047 JLINK_IsHalted()  returns FALSE (0001ms, 0771ms total)
T2954 002:049 JLINK_IsHalted()  returns FALSE (0001ms, 0771ms total)
T2954 002:051 JLINK_IsHalted()  returns FALSE (0001ms, 0771ms total)
T2954 002:122 JLINK_IsHalted() -- CPU_ReadMem(2 bytes @ 0x20000000)  returns TRUE (0006ms, 0776ms total)
T2954 002:128 JLINK_ReadReg(R15 (PC))  returns 0x20000000 (0000ms, 0770ms total)
T2954 002:128 JLINK_ClrBPEx(BPHandle = 0x00000007)  returns 0x00 (0000ms, 0770ms total)
T2954 002:128 JLINK_ReadReg(R0)  returns 0x00000000 (0000ms, 0770ms total)
T2954 002:128 JLINK_WriteReg(R0, 0x00000001)  returns 0x00 (0000ms, 0770ms total)
T2954 002:128 JLINK_WriteReg(R1, 0x00004000)  returns 0x00 (0000ms, 0770ms total)
T2954 002:128 JLINK_WriteReg(R2, 0x000000FF)  returns 0x00 (0000ms, 0770ms total)
T2954 002:128 JLINK_WriteReg(R3, 0x00000000)  returns 0x00 (0000ms, 0770ms total)
T2954 002:128 JLINK_WriteReg(R4, 0x00000000)  returns 0x00 (0000ms, 0770ms total)
T2954 002:128 JLINK_WriteReg(R5, 0x00000000)  returns 0x00 (0000ms, 0770ms total)
T2954 002:128 JLINK_WriteReg(R6, 0x00000000)  returns 0x00 (0000ms, 0770ms total)
T2954 002:128 JLINK_WriteReg(R7, 0x00000000)  returns 0x00 (0000ms, 0770ms total)
T2954 002:128 JLINK_WriteReg(R8, 0x00000000)  returns 0x00 (0000ms, 0770ms total)
T2954 002:128 JLINK_WriteReg(R9, 0x2000017C)  returns 0x00 (0000ms, 0770ms total)
T2954 002:128 JLINK_WriteReg(R10, 0x00000000)  returns 0x00 (0000ms, 0770ms total)
T2954 002:128 JLINK_WriteReg(R11, 0x00000000)  returns 0x00 (0000ms, 0770ms total)
T2954 002:128 JLINK_WriteReg(R12, 0x00000000)  returns 0x00 (0000ms, 0770ms total)
T2954 002:128 JLINK_WriteReg(R13 (SP), 0x20000800)  returns 0x00 (0000ms, 0770ms total)
T2954 002:128 JLINK_WriteReg(R14, 0x20000001)  returns 0x00 (0000ms, 0770ms total)
T2954 002:128 JLINK_WriteReg(R15 (PC), 0x20000082)  returns 0x00 (0000ms, 0770ms total)
T2954 002:128 JLINK_WriteReg(XPSR, 0x01000000)  returns 0x00 (0000ms, 0770ms total)
T2954 002:128 JLINK_WriteReg(MSP, 0x20000800)  returns 0x00 (0000ms, 0770ms total)
T2954 002:128 JLINK_WriteReg(PSP, 0x20000800)  returns 0x00 (0000ms, 0770ms total)
T2954 002:128 JLINK_WriteReg(CFBP, 0x00000000)  returns 0x00 (0000ms, 0770ms total)
T2954 002:128 JLINK_SetBPEx(Addr = 0x20000000, Type = 0xFFFFFFF2)  returns 0x00000008 (0000ms, 0770ms total)
T2954 002:128 JLINK_Go() (0003ms, 0773ms total)
T2954 002:131 JLINK_IsHalted() -- CPU_ReadMem(2 bytes @ 0x20000000)  returns TRUE (0005ms, 0778ms total)
T2954 002:136 JLINK_ReadReg(R15 (PC))  returns 0x20000000 (0000ms, 0773ms total)
T2954 002:136 JLINK_ClrBPEx(BPHandle = 0x00000008)  returns 0x00 (0000ms, 0773ms total)
T2954 002:136 JLINK_ReadReg(R0)  returns 0x00000000 (0000ms, 0773ms total)
T2954 002:204 JLINK_WriteMem(0x20000000, 0x0180 Bytes, ...) - Data: 00 BE 0A E0 0D 78 2D 06 68 40 08 24 40 00 00 D3 ... -- CPU_WriteMem(384 bytes @ 0x20000000)  returns 0x180 (0005ms, 0778ms total)
T2954 002:209 JLINK_WriteReg(R0, 0x08000000)  returns 0x00 (0000ms, 0778ms total)
T2954 002:209 JLINK_WriteReg(R1, 0x017D7840)  returns 0x00 (0000ms, 0778ms total)
T2954 002:209 JLINK_WriteReg(R2, 0x00000002)  returns 0x00 (0000ms, 0778ms total)
T2954 002:209 JLINK_WriteReg(R3, 0x00000000)  returns 0x00 (0000ms, 0778ms total)
T2954 002:209 JLINK_WriteReg(R4, 0x00000000)  returns 0x00 (0000ms, 0778ms total)
T2954 002:209 JLINK_WriteReg(R5, 0x00000000)  returns 0x00 (0000ms, 0778ms total)
T2954 002:209 JLINK_WriteReg(R6, 0x00000000)  returns 0x00 (0000ms, 0778ms total)
T2954 002:209 JLINK_WriteReg(R7, 0x00000000)  returns 0x00 (0000ms, 0778ms total)
T2954 002:209 JLINK_WriteReg(R8, 0x00000000)  returns 0x00 (0000ms, 0778ms total)
T2954 002:209 JLINK_WriteReg(R9, 0x2000017C)  returns 0x00 (0000ms, 0778ms total)
T2954 002:209 JLINK_WriteReg(R10, 0x00000000)  returns 0x00 (0000ms, 0778ms total)
T2954 002:209 JLINK_WriteReg(R11, 0x00000000)  returns 0x00 (0000ms, 0778ms total)
T2954 002:209 JLINK_WriteReg(R12, 0x00000000)  returns 0x00 (0000ms, 0778ms total)
T2954 002:209 JLINK_WriteReg(R13 (SP), 0x20000800)  returns 0x00 (0000ms, 0778ms total)
T2954 002:209 JLINK_WriteReg(R14, 0x20000001)  returns 0x00 (0000ms, 0778ms total)
T2954 002:209 JLINK_WriteReg(R15 (PC), 0x20000054)  returns 0x00 (0000ms, 0778ms total)
T2954 002:209 JLINK_WriteReg(XPSR, 0x01000000)  returns 0x00 (0000ms, 0778ms total)
T2954 002:209 JLINK_WriteReg(MSP, 0x20000800)  returns 0x00 (0000ms, 0778ms total)
T2954 002:209 JLINK_WriteReg(PSP, 0x20000800)  returns 0x00 (0000ms, 0778ms total)
T2954 002:209 JLINK_WriteReg(CFBP, 0x00000000)  returns 0x00 (0000ms, 0778ms total)
T2954 002:209 JLINK_SetBPEx(Addr = 0x20000000, Type = 0xFFFFFFF2) -- CPU_ReadMem(2 bytes @ 0x20000000)  returns 0x00000009 (0002ms, 0780ms total)
T2954 002:211 JLINK_Go() -- CPU_WriteMem(2 bytes @ 0x20000000) (0004ms, 0784ms total)
T2954 002:215 JLINK_IsHalted() -- CPU_ReadMem(2 bytes @ 0x20000000)  returns TRUE (0005ms, 0789ms total)
T2954 002:220 JLINK_ReadReg(R15 (PC))  returns 0x20000000 (0000ms, 0784ms total)
T2954 002:220 JLINK_ClrBPEx(BPHandle = 0x00000009)  returns 0x00 (0000ms, 0784ms total)
T2954 002:220 JLINK_ReadReg(R0)  returns 0x00000000 (0000ms, 0784ms total)
T2954 002:220 JLINK_WriteMem(0x20000180, 0x0400 Bytes, ...) - Data: 20 19 00 20 61 10 00 08 85 10 00 08 87 10 00 08 ... -- CPU_WriteMem(1024 bytes @ 0x20000180)  returns 0x400 (0011ms, 0795ms total)
T2954 002:231 JLINK_WriteReg(R0, 0x08000000)  returns 0x00 (0000ms, 0795ms total)
T2954 002:231 JLINK_WriteReg(R1, 0x00000400)  returns 0x00 (0000ms, 0795ms total)
T2954 002:231 JLINK_WriteReg(R2, 0x20000180)  returns 0x00 (0000ms, 0795ms total)
T2954 002:231 JLINK_WriteReg(R3, 0x00000000)  returns 0x00 (0000ms, 0795ms total)
T2954 002:231 JLINK_WriteReg(R4, 0x00000000)  returns 0x00 (0000ms, 0795ms total)
T2954 002:231 JLINK_WriteReg(R5, 0x00000000)  returns 0x00 (0000ms, 0795ms total)
T2954 002:231 JLINK_WriteReg(R6, 0x00000000)  returns 0x00 (0001ms, 0796ms total)
T2954 002:232 JLINK_WriteReg(R7, 0x00000000)  returns 0x00 (0000ms, 0796ms total)
T2954 002:232 JLINK_WriteReg(R8, 0x00000000)  returns 0x00 (0000ms, 0796ms total)
T2954 002:232 JLINK_WriteReg(R9, 0x2000017C)  returns 0x00 (0000ms, 0796ms total)
T2954 002:232 JLINK_WriteReg(R10, 0x00000000)  returns 0x00 (0000ms, 0796ms total)
T2954 002:232 JLINK_WriteReg(R11, 0x00000000)  returns 0x00 (0000ms, 0796ms total)
T2954 002:232 JLINK_WriteReg(R12, 0x00000000)  returns 0x00 (0000ms, 0796ms total)
T2954 002:232 JLINK_WriteReg(R13 (SP), 0x20000800)  returns 0x00 (0000ms, 0796ms total)
T2954 002:232 JLINK_WriteReg(R14, 0x20000001)  returns 0x00 (0000ms, 0796ms total)
T2954 002:232 JLINK_WriteReg(R15 (PC), 0x20000108)  returns 0x00 (0000ms, 0796ms total)
T2954 002:232 JLINK_WriteReg(XPSR, 0x01000000)  returns 0x00 (0000ms, 0796ms total)
T2954 002:232 JLINK_WriteReg(MSP, 0x20000800)  returns 0x00 (0000ms, 0796ms total)
T2954 002:232 JLINK_WriteReg(PSP, 0x20000800)  returns 0x00 (0000ms, 0796ms total)
T2954 002:232 JLINK_WriteReg(CFBP, 0x00000000)  returns 0x00 (0000ms, 0796ms total)
T2954 002:232 JLINK_SetBPEx(Addr = 0x20000000, Type = 0xFFFFFFF2)  returns 0x0000000A (0000ms, 0796ms total)
T2954 002:232 JLINK_Go() (0002ms, 0798ms total)
T2954 002:234 JLINK_IsHalted()  returns FALSE (0001ms, 0799ms total)
T2954 002:323 JLINK_IsHalted() -- CPU_ReadMem(2 bytes @ 0x20000000)  returns TRUE (0005ms, 0803ms total)
T2954 002:328 JLINK_ReadReg(R15 (PC))  returns 0x20000000 (0000ms, 0798ms total)
T2954 002:328 JLINK_ClrBPEx(BPHandle = 0x0000000A)  returns 0x00 (0000ms, 0798ms total)
T2954 002:328 JLINK_ReadReg(R0)  returns 0x00000000 (0000ms, 0798ms total)
T2954 002:328 JLINK_WriteMem(0x20000180, 0x0400 Bytes, ...) - Data: 06 00 8D F8 07 00 01 A8 00 F0 4D FE 13 20 8D F8 ... -- CPU_WriteMem(1024 bytes @ 0x20000180)  returns 0x400 (0011ms, 0809ms total)
T2954 002:339 JLINK_WriteReg(R0, 0x08000400)  returns 0x00 (0000ms, 0809ms total)
T2954 002:339 JLINK_WriteReg(R1, 0x00000400)  returns 0x00 (0000ms, 0809ms total)
T2954 002:339 JLINK_WriteReg(R2, 0x20000180)  returns 0x00 (0000ms, 0809ms total)
T2954 002:339 JLINK_WriteReg(R3, 0x00000000)  returns 0x00 (0000ms, 0809ms total)
T2954 002:339 JLINK_WriteReg(R4, 0x00000000)  returns 0x00 (0000ms, 0809ms total)
T2954 002:339 JLINK_WriteReg(R5, 0x00000000)  returns 0x00 (0000ms, 0809ms total)
T2954 002:339 JLINK_WriteReg(R6, 0x00000000)  returns 0x00 (0000ms, 0809ms total)
T2954 002:339 JLINK_WriteReg(R7, 0x00000000)  returns 0x00 (0000ms, 0809ms total)
T2954 002:339 JLINK_WriteReg(R8, 0x00000000)  returns 0x00 (0000ms, 0809ms total)
T2954 002:339 JLINK_WriteReg(R9, 0x2000017C)  returns 0x00 (0000ms, 0809ms total)
T2954 002:339 JLINK_WriteReg(R10, 0x00000000)  returns 0x00 (0000ms, 0809ms total)
T2954 002:339 JLINK_WriteReg(R11, 0x00000000)  returns 0x00 (0000ms, 0809ms total)
T2954 002:339 JLINK_WriteReg(R12, 0x00000000)  returns 0x00 (0000ms, 0809ms total)
T2954 002:339 JLINK_WriteReg(R13 (SP), 0x20000800)  returns 0x00 (0000ms, 0809ms total)
T2954 002:339 JLINK_WriteReg(R14, 0x20000001)  returns 0x00 (0000ms, 0809ms total)
T2954 002:339 JLINK_WriteReg(R15 (PC), 0x20000108)  returns 0x00 (0000ms, 0809ms total)
T2954 002:339 JLINK_WriteReg(XPSR, 0x01000000)  returns 0x00 (0000ms, 0809ms total)
T2954 002:339 JLINK_WriteReg(MSP, 0x20000800)  returns 0x00 (0000ms, 0809ms total)
T2954 002:339 JLINK_WriteReg(PSP, 0x20000800)  returns 0x00 (0000ms, 0809ms total)
T2954 002:339 JLINK_WriteReg(CFBP, 0x00000000)  returns 0x00 (0000ms, 0809ms total)
T2954 002:339 JLINK_SetBPEx(Addr = 0x20000000, Type = 0xFFFFFFF2)  returns 0x0000000B (0001ms, 0810ms total)
T2954 002:340 JLINK_Go() (0002ms, 0812ms total)
T2954 002:342 JLINK_IsHalted()  returns FALSE (0001ms, 0813ms total)
T2954 002:413 JLINK_IsHalted() -- CPU_ReadMem(2 bytes @ 0x20000000)  returns TRUE (0005ms, 0817ms total)
T2954 002:418 JLINK_ReadReg(R15 (PC))  returns 0x20000000 (0000ms, 0812ms total)
T2954 002:418 JLINK_ClrBPEx(BPHandle = 0x0000000B)  returns 0x00 (0000ms, 0812ms total)
T2954 002:418 JLINK_ReadReg(R0)  returns 0x00000000 (0000ms, 0812ms total)
T2954 002:418 JLINK_WriteMem(0x20000180, 0x0400 Bytes, ...) - Data: 10 B1 01 20 01 F0 0B FC 10 BD 10 B5 02 20 01 F0 ... -- CPU_WriteMem(1024 bytes @ 0x20000180)  returns 0x400 (0011ms, 0823ms total)
T2954 002:429 JLINK_WriteReg(R0, 0x08000800)  returns 0x00 (0000ms, 0823ms total)
T2954 002:429 JLINK_WriteReg(R1, 0x00000400)  returns 0x00 (0000ms, 0823ms total)
T2954 002:429 JLINK_WriteReg(R2, 0x20000180)  returns 0x00 (0001ms, 0824ms total)
T2954 002:430 JLINK_WriteReg(R3, 0x00000000)  returns 0x00 (0000ms, 0824ms total)
T2954 002:430 JLINK_WriteReg(R4, 0x00000000)  returns 0x00 (0000ms, 0824ms total)
T2954 002:430 JLINK_WriteReg(R5, 0x00000000)  returns 0x00 (0000ms, 0824ms total)
T2954 002:430 JLINK_WriteReg(R6, 0x00000000)  returns 0x00 (0000ms, 0824ms total)
T2954 002:430 JLINK_WriteReg(R7, 0x00000000)  returns 0x00 (0000ms, 0824ms total)
T2954 002:430 JLINK_WriteReg(R8, 0x00000000)  returns 0x00 (0000ms, 0824ms total)
T2954 002:430 JLINK_WriteReg(R9, 0x2000017C)  returns 0x00 (0000ms, 0824ms total)
T2954 002:430 JLINK_WriteReg(R10, 0x00000000)  returns 0x00 (0000ms, 0824ms total)
T2954 002:430 JLINK_WriteReg(R11, 0x00000000)  returns 0x00 (0000ms, 0824ms total)
T2954 002:430 JLINK_WriteReg(R12, 0x00000000)  returns 0x00 (0000ms, 0824ms total)
T2954 002:430 JLINK_WriteReg(R13 (SP), 0x20000800)  returns 0x00 (0000ms, 0824ms total)
T2954 002:430 JLINK_WriteReg(R14, 0x20000001)  returns 0x00 (0000ms, 0824ms total)
T2954 002:430 JLINK_WriteReg(R15 (PC), 0x20000108)  returns 0x00 (0000ms, 0824ms total)
T2954 002:430 JLINK_WriteReg(XPSR, 0x01000000)  returns 0x00 (0000ms, 0824ms total)
T2954 002:430 JLINK_WriteReg(MSP, 0x20000800)  returns 0x00 (0000ms, 0824ms total)
T2954 002:430 JLINK_WriteReg(PSP, 0x20000800)  returns 0x00 (0000ms, 0824ms total)
T2954 002:430 JLINK_WriteReg(CFBP, 0x00000000)  returns 0x00 (0000ms, 0824ms total)
T2954 002:430 JLINK_SetBPEx(Addr = 0x20000000, Type = 0xFFFFFFF2)  returns 0x0000000C (0000ms, 0824ms total)
T2954 002:430 JLINK_Go() (0002ms, 0826ms total)
T2954 002:432 JLINK_IsHalted()  returns FALSE (0001ms, 0827ms total)
T2954 002:503 JLINK_IsHalted() -- CPU_ReadMem(2 bytes @ 0x20000000)  returns TRUE (0005ms, 0831ms total)
T2954 002:508 JLINK_ReadReg(R15 (PC))  returns 0x20000000 (0000ms, 0826ms total)
T2954 002:508 JLINK_ClrBPEx(BPHandle = 0x0000000C)  returns 0x00 (0000ms, 0826ms total)
T2954 002:508 JLINK_ReadReg(R0)  returns 0x00000000 (0000ms, 0826ms total)
T2954 002:508 JLINK_WriteMem(0x20000180, 0x0400 Bytes, ...) - Data: E8 FD 00 20 07 F0 08 F9 04 46 07 F0 F7 FF 10 BD ... -- CPU_WriteMem(1024 bytes @ 0x20000180)  returns 0x400 (0011ms, 0837ms total)
T2954 002:519 JLINK_WriteReg(R0, 0x08000C00)  returns 0x00 (0000ms, 0837ms total)
T2954 002:519 JLINK_WriteReg(R1, 0x00000400)  returns 0x00 (0000ms, 0837ms total)
T2954 002:519 JLINK_WriteReg(R2, 0x20000180)  returns 0x00 (0000ms, 0837ms total)
T2954 002:519 JLINK_WriteReg(R3, 0x00000000)  returns 0x00 (0000ms, 0837ms total)
T2954 002:519 JLINK_WriteReg(R4, 0x00000000)  returns 0x00 (0000ms, 0837ms total)
T2954 002:519 JLINK_WriteReg(R5, 0x00000000)  returns 0x00 (0000ms, 0837ms total)
T2954 002:519 JLINK_WriteReg(R6, 0x00000000)  returns 0x00 (0000ms, 0837ms total)
T2954 002:519 JLINK_WriteReg(R7, 0x00000000)  returns 0x00 (0000ms, 0837ms total)
T2954 002:519 JLINK_WriteReg(R8, 0x00000000)  returns 0x00 (0000ms, 0837ms total)
T2954 002:519 JLINK_WriteReg(R9, 0x2000017C)  returns 0x00 (0000ms, 0837ms total)
T2954 002:519 JLINK_WriteReg(R10, 0x00000000)  returns 0x00 (0000ms, 0837ms total)
T2954 002:519 JLINK_WriteReg(R11, 0x00000000)  returns 0x00 (0000ms, 0837ms total)
T2954 002:519 JLINK_WriteReg(R12, 0x00000000)  returns 0x00 (0000ms, 0837ms total)
T2954 002:519 JLINK_WriteReg(R13 (SP), 0x20000800)  returns 0x00 (0000ms, 0837ms total)
T2954 002:519 JLINK_WriteReg(R14, 0x20000001)  returns 0x00 (0000ms, 0837ms total)
T2954 002:519 JLINK_WriteReg(R15 (PC), 0x20000108)  returns 0x00 (0000ms, 0837ms total)
T2954 002:519 JLINK_WriteReg(XPSR, 0x01000000)  returns 0x00 (0000ms, 0837ms total)
T2954 002:519 JLINK_WriteReg(MSP, 0x20000800)  returns 0x00 (0000ms, 0837ms total)
T2954 002:519 JLINK_WriteReg(PSP, 0x20000800)  returns 0x00 (0000ms, 0837ms total)
T2954 002:519 JLINK_WriteReg(CFBP, 0x00000000)  returns 0x00 (0000ms, 0837ms total)
T2954 002:519 JLINK_SetBPEx(Addr = 0x20000000, Type = 0xFFFFFFF2)  returns 0x0000000D (0000ms, 0837ms total)
T2954 002:519 JLINK_Go() (0003ms, 0840ms total)
T2954 002:522 JLINK_IsHalted()  returns FALSE (0001ms, 0841ms total)
T2954 002:594 JLINK_IsHalted() -- CPU_ReadMem(2 bytes @ 0x20000000)  returns TRUE (0005ms, 0845ms total)
T2954 002:599 JLINK_ReadReg(R15 (PC))  returns 0x20000000 (0000ms, 0840ms total)
T2954 002:599 JLINK_ClrBPEx(BPHandle = 0x0000000D)  returns 0x00 (0000ms, 0840ms total)
T2954 002:599 JLINK_ReadReg(R0)  returns 0x00000000 (0000ms, 0840ms total)
T2954 002:599 JLINK_WriteMem(0x20000180, 0x0400 Bytes, ...) - Data: 01 20 01 F0 36 F8 01 F0 5E F8 01 98 BF E7 2D E9 ... -- CPU_WriteMem(1024 bytes @ 0x20000180)  returns 0x400 (0011ms, 0851ms total)
T2954 002:611 JLINK_WriteReg(R0, 0x08001000)  returns 0x00 (0000ms, 0851ms total)
T2954 002:611 JLINK_WriteReg(R1, 0x00000400)  returns 0x00 (0000ms, 0851ms total)
T2954 002:611 JLINK_WriteReg(R2, 0x20000180)  returns 0x00 (0000ms, 0851ms total)
T2954 002:611 JLINK_WriteReg(R3, 0x00000000)  returns 0x00 (0000ms, 0851ms total)
T2954 002:611 JLINK_WriteReg(R4, 0x00000000)  returns 0x00 (0000ms, 0851ms total)
T2954 002:611 JLINK_WriteReg(R5, 0x00000000)  returns 0x00 (0000ms, 0851ms total)
T2954 002:611 JLINK_WriteReg(R6, 0x00000000)  returns 0x00 (0000ms, 0851ms total)
T2954 002:611 JLINK_WriteReg(R7, 0x00000000)  returns 0x00 (0000ms, 0851ms total)
T2954 002:611 JLINK_WriteReg(R8, 0x00000000)  returns 0x00 (0000ms, 0851ms total)
T2954 002:611 JLINK_WriteReg(R9, 0x2000017C)  returns 0x00 (0000ms, 0851ms total)
T2954 002:611 JLINK_WriteReg(R10, 0x00000000)  returns 0x00 (0000ms, 0851ms total)
T2954 002:611 JLINK_WriteReg(R11, 0x00000000)  returns 0x00 (0000ms, 0851ms total)
T2954 002:611 JLINK_WriteReg(R12, 0x00000000)  returns 0x00 (0000ms, 0851ms total)
T2954 002:611 JLINK_WriteReg(R13 (SP), 0x20000800)  returns 0x00 (0000ms, 0851ms total)
T2954 002:611 JLINK_WriteReg(R14, 0x20000001)  returns 0x00 (0000ms, 0851ms total)
T2954 002:611 JLINK_WriteReg(R15 (PC), 0x20000108)  returns 0x00 (0000ms, 0851ms total)
T2954 002:611 JLINK_WriteReg(XPSR, 0x01000000)  returns 0x00 (0000ms, 0851ms total)
T2954 002:611 JLINK_WriteReg(MSP, 0x20000800)  returns 0x00 (0000ms, 0851ms total)
T2954 002:611 JLINK_WriteReg(PSP, 0x20000800)  returns 0x00 (0000ms, 0851ms total)
T2954 002:612 JLINK_WriteReg(CFBP, 0x00000000)  returns 0x00 (0000ms, 0851ms total)
T2954 002:612 JLINK_SetBPEx(Addr = 0x20000000, Type = 0xFFFFFFF2)  returns 0x0000000E (0000ms, 0851ms total)
T2954 002:612 JLINK_Go() (0002ms, 0853ms total)
T2954 002:614 JLINK_IsHalted()  returns FALSE (0001ms, 0854ms total)
T2954 002:686 JLINK_IsHalted() -- CPU_ReadMem(2 bytes @ 0x20000000)  returns TRUE (0005ms, 0858ms total)
T2954 002:691 JLINK_ReadReg(R15 (PC))  returns 0x20000000 (0000ms, 0853ms total)
T2954 002:691 JLINK_ClrBPEx(BPHandle = 0x0000000E)  returns 0x00 (0000ms, 0853ms total)
T2954 002:691 JLINK_ReadReg(R0)  returns 0x00000000 (0000ms, 0853ms total)
T2954 002:691 JLINK_WriteMem(0x20000180, 0x0400 Bytes, ...) - Data: 09 68 41 EA 00 21 11 60 11 46 09 68 21 F0 01 01 ... -- CPU_WriteMem(1024 bytes @ 0x20000180)  returns 0x400 (0011ms, 0864ms total)
T2954 002:702 JLINK_WriteReg(R0, 0x08001400)  returns 0x00 (0000ms, 0864ms total)
T2954 002:702 JLINK_WriteReg(R1, 0x00000400)  returns 0x00 (0000ms, 0864ms total)
T2954 002:702 JLINK_WriteReg(R2, 0x20000180)  returns 0x00 (0000ms, 0864ms total)
T2954 002:702 JLINK_WriteReg(R3, 0x00000000)  returns 0x00 (0000ms, 0864ms total)
T2954 002:702 JLINK_WriteReg(R4, 0x00000000)  returns 0x00 (0000ms, 0864ms total)
T2954 002:702 JLINK_WriteReg(R5, 0x00000000)  returns 0x00 (0000ms, 0864ms total)
T2954 002:702 JLINK_WriteReg(R6, 0x00000000)  returns 0x00 (0000ms, 0864ms total)
T2954 002:702 JLINK_WriteReg(R7, 0x00000000)  returns 0x00 (0000ms, 0864ms total)
T2954 002:702 JLINK_WriteReg(R8, 0x00000000)  returns 0x00 (0000ms, 0864ms total)
T2954 002:702 JLINK_WriteReg(R9, 0x2000017C)  returns 0x00 (0000ms, 0864ms total)
T2954 002:702 JLINK_WriteReg(R10, 0x00000000)  returns 0x00 (0000ms, 0864ms total)
T2954 002:702 JLINK_WriteReg(R11, 0x00000000)  returns 0x00 (0000ms, 0864ms total)
T2954 002:702 JLINK_WriteReg(R12, 0x00000000)  returns 0x00 (0000ms, 0864ms total)
T2954 002:702 JLINK_WriteReg(R13 (SP), 0x20000800)  returns 0x00 (0000ms, 0864ms total)
T2954 002:702 JLINK_WriteReg(R14, 0x20000001)  returns 0x00 (0000ms, 0864ms total)
T2954 002:702 JLINK_WriteReg(R15 (PC), 0x20000108)  returns 0x00 (0000ms, 0864ms total)
T2954 002:702 JLINK_WriteReg(XPSR, 0x01000000)  returns 0x00 (0000ms, 0864ms total)
T2954 002:702 JLINK_WriteReg(MSP, 0x20000800)  returns 0x00 (0000ms, 0864ms total)
T2954 002:702 JLINK_WriteReg(PSP, 0x20000800)  returns 0x00 (0000ms, 0864ms total)
T2954 002:702 JLINK_WriteReg(CFBP, 0x00000000)  returns 0x00 (0000ms, 0864ms total)
T2954 002:702 JLINK_SetBPEx(Addr = 0x20000000, Type = 0xFFFFFFF2)  returns 0x0000000F (0001ms, 0865ms total)
T2954 002:703 JLINK_Go() (0002ms, 0867ms total)
T2954 002:705 JLINK_IsHalted()  returns FALSE (0001ms, 0868ms total)
T2954 002:776 JLINK_IsHalted() -- CPU_ReadMem(2 bytes @ 0x20000000)  returns TRUE (0005ms, 0872ms total)
T2954 002:781 JLINK_ReadReg(R15 (PC))  returns 0x20000000 (0000ms, 0867ms total)
T2954 002:781 JLINK_ClrBPEx(BPHandle = 0x0000000F)  returns 0x00 (0000ms, 0867ms total)
T2954 002:781 JLINK_ReadReg(R0)  returns 0x00000000 (0000ms, 0867ms total)
T2954 002:781 JLINK_WriteMem(0x20000180, 0x0400 Bytes, ...) - Data: 03 04 0C B1 00 29 F8 D1 54 68 04 F0 03 04 0C B1 ... -- CPU_WriteMem(1024 bytes @ 0x20000180)  returns 0x400 (0011ms, 0878ms total)
T2954 002:792 JLINK_WriteReg(R0, 0x08001800)  returns 0x00 (0000ms, 0878ms total)
T2954 002:792 JLINK_WriteReg(R1, 0x00000400)  returns 0x00 (0000ms, 0878ms total)
T2954 002:792 JLINK_WriteReg(R2, 0x20000180)  returns 0x00 (0000ms, 0878ms total)
T2954 002:792 JLINK_WriteReg(R3, 0x00000000)  returns 0x00 (0000ms, 0878ms total)
T2954 002:792 JLINK_WriteReg(R4, 0x00000000)  returns 0x00 (0000ms, 0878ms total)
T2954 002:792 JLINK_WriteReg(R5, 0x00000000)  returns 0x00 (0000ms, 0878ms total)
T2954 002:792 JLINK_WriteReg(R6, 0x00000000)  returns 0x00 (0000ms, 0878ms total)
T2954 002:792 JLINK_WriteReg(R7, 0x00000000)  returns 0x00 (0000ms, 0878ms total)
T2954 002:792 JLINK_WriteReg(R8, 0x00000000)  returns 0x00 (0000ms, 0878ms total)
T2954 002:792 JLINK_WriteReg(R9, 0x2000017C)  returns 0x00 (0000ms, 0878ms total)
T2954 002:792 JLINK_WriteReg(R10, 0x00000000)  returns 0x00 (0000ms, 0878ms total)
T2954 002:792 JLINK_WriteReg(R11, 0x00000000)  returns 0x00 (0000ms, 0878ms total)
T2954 002:792 JLINK_WriteReg(R12, 0x00000000)  returns 0x00 (0000ms, 0878ms total)
T2954 002:792 JLINK_WriteReg(R13 (SP), 0x20000800)  returns 0x00 (0000ms, 0878ms total)
T2954 002:792 JLINK_WriteReg(R14, 0x20000001)  returns 0x00 (0000ms, 0878ms total)
